
T17FC 1512:950 SEGGER J-Link V4.58 Log File (0000ms, 0281ms total)
T17FC 1512:950 DLL Compiled: Nov 29 2012 14:18:06 (0000ms, 0281ms total)
T17FC 1512:950 Logging started @ 2020-12-27 15:17 (0000ms, 0281ms total)
T17FC 1512:950 JLINK_SetWarnOutHandler(...) (0000ms, 0281ms total)
T17FC 1512:950 JLINK_OpenEx(...)
Firmware: J-Link ARM-OB STM32 compiled Jun 30 2039 11:14:15
Hardware: V7.00
S/N: 20090928
Feature(s): RDI,FlashDL,FlashBP,JFlash,GDBFull  returns O.K. (0011ms, 0292ms total)
T17FC 1512:961 JLINK_GetEmuCaps()  returns 0x88EA5833 (0000ms, 0292ms total)
T17FC 1512:961 JLINK_TIF_GetAvailable(...) (0000ms, 0292ms total)
T17FC 1512:961 JLINK_SetErrorOutHandler(...) (0000ms, 0292ms total)
T17FC 1512:961 JLINK_ExecCommand("ProjectFile = "C:\Users\Administrator\Desktop\基于STM32的智能家居项目\USER\JLinkSettings.ini"", ...)
                JLINK_AddMirrorAreaEx(Addr = 0x00000000, Size = 0x00000000) (0000ms, 0000ms total)
              Device "UNSPECIFIED" selected (0 KB flash, 0 KB RAM).  returns 0x00 (0002ms, 0294ms total)
T17FC 1512:971 JLINK_ExecCommand("Device = STM32F429IGTx", ...)
                JLINK_AddMirrorAreaEx(Addr = 0x00000000, Size = 0x00000000) (0000ms, 0000ms total)
              Device "UNSPECIFIED" selected (0 KB flash, 0 KB RAM).  returns 0x00 (0002ms, 0296ms total)
T17FC 1512:973 JLINK_ExecCommand("DisableConnectionTimeout", ...)  returns 0x00 (0000ms, 0296ms total)
T17FC 1512:973 JLINK_GetHardwareVersion()  returns 0x11170 (0000ms, 0296ms total)
T17FC 1512:973 JLINK_GetDLLVersion()  returns 45800 (0000ms, 0296ms total)
T17FC 1512:973 JLINK_GetFirmwareString(...) (0000ms, 0296ms total)
T17FC 1512:981 JLINK_GetDLLVersion()  returns 45800 (0000ms, 0296ms total)
T17FC 1512:981 JLINK_GetCompileDateTime() (0000ms, 0296ms total)
T17FC 1512:983 JLINK_GetFirmwareString(...) (0000ms, 0296ms total)
T17FC 1512:984 JLINK_GetHardwareVersion()  returns 0x11170 (0000ms, 0296ms total)
T17FC 1513:000 JLINK_TIF_Select(JLINKARM_TIF_SWD)  returns 0x00 (0001ms, 0297ms total)
T17FC 1513:001 JLINK_SetSpeed(5000) (0000ms, 0297ms total)
T17FC 1513:001 JLINK_GetId() >0x108 TIF>Found SWD-DP with ID 0x2BA01477 >0x0D TIF> >0x21 TIF> >0x0D TIF> >0x28 TIF> >0x0D TIF> >0x28 TIF> >0x0D TIF> >0x21 TIF> >0x0D TIF> >0x21 TIF> >0x0D TIF> >0x28 TIF> >0x0D TIF> >0x21 TIF> >0x0D TIF> >0x21 TIF> >0x0D TIF> >0x21 TIF> >0x0D TIF> >0x21 TIF> >0x0D TIF> >0x28 TIF> >0x0D TIF> >0x21 TIF> >0x0D TIF> >0x28 TIF> >0x0D TIF> >0x28 TIF> >0x0D TIF> >0x21 TIF> >0x0D TIF> >0x21 TIF> >0x0D TIF> >0x28 TIF> >0x0D TIF> >0x21 TIF> >0x0D TIF> >0x21 TIF> >0x0D TIF>
 >0x28 TIF> >0x0D TIF> >0x28 TIF> >0x0D TIF> >0x28 TIF> >0x0D TIF> >0x21 TIF> >0x0D TIF> >0x21 TIF> >0x0D TIF> >0x28 TIF> >0x0D TIF> >0x28 TIF> >0x0D TIF> >0x28 TIF> >0x0D TIF> >0x28 TIF> >0x0D TIF> >0x28 TIF> >0x0D TIF> >0x21 TIF> >0x0D TIF> >0x21 TIF> >0x0D TIF> >0x21 TIF>TPIU fitted.ETM fitted. >0x0D TIF> >0x28 TIF> >0x0D TIF> >0x21 TIF> >0x0D TIF> >0x21 TIF> >0x0D TIF> >0x28 TIF> >0x0D TIF> >0x21 TIF> >0x0D TIF> >0x21 TIF>FPUnit: 6 code (BP) slots and 2 literal slots >0x0D TIF> >0x28 TIF> >0x0D TIF>
 >0x21 TIF> >0x0D TIF> >0x21 TIF> >0x0D TIF> >0x28 TIF> >0x0D TIF> >0x28 TIF> >0x0D TIF> >0x28 TIF> >0x0D TIF> >0x21 TIF> >0x0D TIF> >0x21 TIF> >0x0D TIF> >0x28 TIF> >0x0D TIF> >0x21 TIF> >0x0D TIF> >0x21 TIF> >0x0D TIF> >0x28 TIF> >0x0D TIF> >0x21 TIF> >0x0D TIF> >0x21 TIF>Found Cortex-M4 r0p1, Little endian. >0x0D TIF> >0x28 TIF> >0x0D TIF> >0x21 TIF>  returns 0x2BA01477 (2382ms, 2679ms total)
T17FC 1515:383 JLINK_GetDLLVersion()  returns 45800 (0000ms, 2679ms total)
T17FC 1515:383 JLINK_CORE_GetFound()  returns 0xE0000FF (0000ms, 2679ms total)
T17FC 1515:386 JLINK_GetDebugInfo(0x100) -- Value=0xE00FF003  returns 0x00 (0000ms, 2679ms total)
T17FC 1515:386 JLINK_GetDebugInfo(0x101)  returns 0xFFFFFFFF (0000ms, 2679ms total)
T17FC 1515:386 JLINK_ReadMemEx(0xE0041FF0, 0x0010 Bytes, ..., AccessWidth = 33554436) -- CPU is running >0x0D TIF> >0x28 TIF> >0x239 TIF> >0x0D TIF> >0x28 TIF> -- Data:  0D 00 00 00 90 00 00 00 05 00 00 00 B1 00 00 00  returns 0x10 (0002ms, 2681ms total)
T17FC 1515:388 JLINK_ReadMemEx(0xE0041FD0, 0x0020 Bytes, ..., AccessWidth = 33554436) -- CPU is running >0x0D TIF> >0x28 TIF> >0x305 TIF> >0x0D TIF> >0x28 TIF> -- Data:  04 00 00 00 00 00 00 00 00 00 00 00 00 00 00 00 ...  returns 0x20 (0003ms, 2684ms total)
T17FC 1515:391 JLINK_GetDebugInfo(0x102)  returns 0xFFFFFFFF (0000ms, 2684ms total)
T17FC 1515:391 JLINK_GetDebugInfo(0x103)  returns 0xFFFFFFFF (0000ms, 2684ms total)
T17FC 1515:391 JLINK_ReadMemEx(0xE0040FF0, 0x0010 Bytes, ..., AccessWidth = 33554436) -- CPU is running >0x0D TIF> >0x28 TIF> >0x239 TIF> >0x0D TIF> >0x28 TIF> -- Data:  0D 00 00 00 90 00 00 00 05 00 00 00 B1 00 00 00  returns 0x10 (0001ms, 2685ms total)
T17FC 1515:392 JLINK_GetDebugInfo(0x104)  returns 0xFFFFFFFF (0000ms, 2685ms total)
T17FC 1515:392 JLINK_GetDebugInfo(0x105)  returns 0xFFFFFFFF (0000ms, 2685ms total)
T17FC 1515:392 JLINK_GetDebugInfo(0x106)  returns 0xFFFFFFFF (0000ms, 2685ms total)
T17FC 1515:392 JLINK_GetDebugInfo(0x107)  returns 0xFFFFFFFF (0000ms, 2685ms total)
T17FC 1515:392 JLINK_GetDebugInfo(0x10C)  returns 0xFFFFFFFF (0000ms, 2685ms total)
T17FC 1515:392 JLINK_GetDebugInfo(0x01)  returns 0xFFFFFFFF (0000ms, 2685ms total)
T17FC 1515:392 JLINK_GetDeviceFamily()  returns 14 (0000ms, 2685ms total)
T17FC 1515:392 JLINK_ReadMemU32(0xE000ED00, 0x0001 Items, ...) -- CPU is running >0x0D TIF> >0x28 TIF> >0x1A0 TIF> >0x0D TIF> >0x28 TIF> -- Data:  41 C2 0F 41  returns 0x01 (0002ms, 2687ms total)
T17FC 1515:394 JLINK_GetDebugInfo(0x10F)  returns 0xFFFFFFFF (0000ms, 2687ms total)
T17FC 1515:394 JLINK_SetResetType(JLINKARM_RESET_TYPE_NORMAL)  returns JLINKARM_RESET_TYPE_NORMAL (0000ms, 2687ms total)
T17FC 1515:394 JLINK_Reset() -- CPU is running >0x0D TIF> >0x28 TIF> >0x1A2 TIF> >0x0D TIF> >0x28 TIF> -- CPU is running >0x0D TIF> >0x28 TIF> >0x1A2 TIF> >0x0D TIF> >0x28 TIF> >0x35 TIF> -- CPU is running >0x0D TIF> >0x28 TIF> >0x1A2 TIF> >0x0D TIF> >0x28 TIF> -- CPU is running >0x0D TIF> >0x28 TIF> >0x1A0 TIF> >0x0D TIF> >0x28 TIF> -- CPU is running >0x0D TIF> >0x28 TIF> >0x1A0 TIF> >0x0D TIF> >0x28 TIF> -- CPU is running >0x0D TIF> >0x28 TIF> >0x1A2 TIF> >0x0D TIF> >0x28 TIF> -- CPU is running
 >0x0D TIF> >0x28 TIF> >0x1A2 TIF> >0x0D TIF> >0x28 TIF> -- CPU is running >0x0D TIF> >0x28 TIF> >0x1A0 TIF> >0x0D TIF> >0x28 TIF> -- CPU is running >0x0D TIF> >0x28 TIF> >0x1A0 TIF> >0x0D TIF> >0x28 TIF> >0x11E4 TIF> >0x0D TIF> >0x28 TIF> >0x1A2 TIF> >0x0D TIF> >0x28 TIF> (0032ms, 2719ms total)
T17FC 1515:426 JLINK_Halt()  returns 0x00 (0000ms, 2719ms total)
T17FC 1515:426 JLINK_ReadMemU32(0xE000EDF0, 0x0001 Items, ...) >0x0D TIF> >0x28 TIF> >0x1A0 TIF> >0x0D TIF> >0x28 TIF> -- Data:  03 00 03 00  returns 0x01 (0001ms, 2720ms total)
T17FC 1515:427 JLINK_WriteU32(0xE000EDF0, 0xA05F0003) >0x0D TIF> >0x28 TIF> >0x1A2 TIF> >0x0D TIF> >0x28 TIF>  returns 0x00 (0002ms, 2722ms total)
T17FC 1515:429 JLINK_WriteU32(0xE000EDFC, 0x01000000) >0x0D TIF> >0x28 TIF> >0x1A2 TIF> >0x0D TIF> >0x28 TIF>  returns 0x00 (0001ms, 2723ms total)
T17FC 1515:436 JLINK_GetHWStatus(...)  returns 0x00 (0000ms, 2723ms total)
T17FC 1515:449 JLINK_GetNumBPUnits(Type = 0xFFFFFF00)  returns 0x06 (0000ms, 2723ms total)
T17FC 1515:449 JLINK_GetNumBPUnits(Type = 0xF0)  returns 0x2000 (0000ms, 2723ms total)
T17FC 1515:449 JLINK_GetNumWPUnits()  returns 0x04 (0000ms, 2723ms total)
T17FC 1515:452 JLINK_GetSpeed()  returns 0xFA0 (0000ms, 2723ms total)
T17FC 1515:454 JLINK_ReadMemU32(0xE000E004, 0x0001 Items, ...) >0x0D TIF> >0x28 TIF> >0x1A0 TIF> >0x0D TIF> >0x28 TIF> -- Data:  02 00 00 00  returns 0x01 (0002ms, 2725ms total)
T17FC 1515:456 JLINK_ReadMemU32(0xE000E004, 0x0001 Items, ...) >0x0D TIF> >0x28 TIF> >0x1A0 TIF> >0x0D TIF> >0x28 TIF> -- Data:  02 00 00 00  returns 0x01 (0002ms, 2727ms total)
T17FC 1515:458 JLINK_WriteMemEx(0xE0001000, 0x001C Bytes, ..., AccessWidth = 33554436) -- Data:  01 00 00 00 00 00 00 00 00 00 00 00 00 00 00 00 ... >0x0D TIF> >0x28 TIF> >0x2E0 TIF> >0x0D TIF> >0x28 TIF>  returns 0x1C (0002ms, 2729ms total)
T17FC 1515:460 JLINK_Halt()  returns 0x00 (0000ms, 2729ms total)
T17FC 1515:460 JLINK_IsHalted()  returns TRUE (0000ms, 2729ms total)
T17FC 1515:463 JLINK_WriteMem(0x20000000, 0x0180 Bytes, ...) -- Data:  00 BE 0A E0 0D 78 2D 06 68 40 08 24 40 00 00 D3 ... >0x0D TIF> >0x28 TIF> >0x154D TIF> >0x0D TIF> >0x28 TIF>  returns 0x180 (0009ms, 2738ms total)
T17FC 1515:472 JLINK_WriteReg(R0, 0x08000000)  returns 0x00 (0000ms, 2738ms total)
T17FC 1515:472 JLINK_WriteReg(R1, 0x00B71B00)  returns 0x00 (0000ms, 2738ms total)
T17FC 1515:472 JLINK_WriteReg(R2, 0x00000001)  returns 0x00 (0000ms, 2738ms total)
T17FC 1515:472 JLINK_WriteReg(R3, 0x00000000)  returns 0x00 (0000ms, 2738ms total)
T17FC 1515:472 JLINK_WriteReg(R4, 0x00000000)  returns 0x00 (0000ms, 2738ms total)
T17FC 1515:472 JLINK_WriteReg(R5, 0x00000000)  returns 0x00 (0000ms, 2738ms total)
T17FC 1515:472 JLINK_WriteReg(R6, 0x00000000)  returns 0x00 (0000ms, 2738ms total)
T17FC 1515:472 JLINK_WriteReg(R7, 0x00000000)  returns 0x00 (0000ms, 2738ms total)
T17FC 1515:472 JLINK_WriteReg(R8, 0x00000000)  returns 0x00 (0000ms, 2738ms total)
T17FC 1515:472 JLINK_WriteReg(R9, 0x2000017C)  returns 0x00 (0000ms, 2738ms total)
T17FC 1515:472 JLINK_WriteReg(R10, 0x00000000)  returns 0x00 (0000ms, 2738ms total)
T17FC 1515:472 JLINK_WriteReg(R11, 0x00000000)  returns 0x00 (0000ms, 2738ms total)
T17FC 1515:472 JLINK_WriteReg(R12, 0x00000000)  returns 0x00 (0000ms, 2738ms total)
T17FC 1515:472 JLINK_WriteReg(R13, 0x20001000)  returns 0x00 (0000ms, 2738ms total)
T17FC 1515:472 JLINK_WriteReg(R14, 0x20000001)  returns 0x00 (0000ms, 2738ms total)
T17FC 1515:472 JLINK_WriteReg(R15, 0x20000054)  returns 0x00 (0000ms, 2738ms total)
T17FC 1515:472 JLINK_WriteReg(XPSR, 0x01000000)  returns 0x00 (0000ms, 2738ms total)
T17FC 1515:472 JLINK_WriteReg(MSP, 0x20001000)  returns 0x00 (0000ms, 2738ms total)
T17FC 1515:472 JLINK_WriteReg(PSP, 0x20001000)  returns 0x00 (0000ms, 2738ms total)
T17FC 1515:472 JLINK_WriteReg(CFBP, 0x00000000)  returns 0x00 (0000ms, 2738ms total)
T17FC 1515:472 JLINK_SetBPEx(Addr = 0x20000000, Type = 0xFFFFFFF2) >0x0D TIF> >0x28 TIF> >0x1A0 TIF> >0x0D TIF> >0x28 TIF> >0x0D TIF> >0x28 TIF> >0x1A2 TIF> >0x0D TIF> >0x28 TIF> >0x0D TIF> >0x28 TIF> >0x1A0 TIF> >0x0D TIF> >0x28 TIF> >0x0D TIF> >0x28 TIF> >0x1A2 TIF> >0x0D TIF> >0x28 TIF> >0x0D TIF> >0x28 TIF> >0x1A0 TIF> >0x0D TIF> >0x28 TIF>  returns 0x00000001 (0009ms, 2747ms total)
T17FC 1515:481 JLINK_Go() >0x0D TIF> >0x28 TIF> >0x1A2 TIF> >0x0D TIF> >0x28 TIF> >0x0D TIF> >0x28 TIF> >0x1A2 TIF> >0x0D TIF> >0x28 TIF> >0x0D TIF> >0x28 TIF> >0x1A2 TIF> >0x0D TIF> >0x28 TIF> >0x0D TIF> >0x28 TIF> >0x1A2 TIF> >0x0D TIF> >0x28 TIF> >0x0D TIF> >0x28 TIF> >0x1A2 TIF> >0x0D TIF> >0x28 TIF> >0x0D TIF> >0x28 TIF> >0x1A2 TIF> >0x0D TIF> >0x28 TIF> >0x0D TIF> >0x28 TIF> >0x1A2 TIF> >0x0D TIF> >0x28 TIF> >0x0D TIF> >0x28 TIF> >0x20E TIF> >0x13A TIF> >0x13A TIF> >0x13A TIF> >0x13A TIF>
 >0x13A TIF> >0x13A TIF> >0x13A TIF> >0x1A2 TIF> >0x0D TIF> >0x28 TIF> (0018ms, 2765ms total)
T17FC 1515:499 JLINK_IsHalted() -- CPU is running >0x0D TIF> >0x28 TIF> >0x1A0 TIF> >0x0D TIF> >0x28 TIF> >0x11E4 TIF> >0x0D TIF> >0x28 TIF> >0x1A0 TIF> >0x0D TIF> >0x28 TIF>  returns TRUE (0010ms, 2775ms total)
T17FC 1515:509 JLINK_ReadReg(R15)  returns 0x20000000 (0000ms, 2765ms total)
T17FC 1515:509 JLINK_ClrBPEx(BPHandle = 0x00000001)  returns 0x00 (0000ms, 2765ms total)
T17FC 1515:509 JLINK_ReadReg(R0)  returns 0x00000000 (0000ms, 2765ms total)
T17FC 1515:509 JLINK_WriteReg(R0, 0x08000000)  returns 0x00 (0000ms, 2765ms total)
T17FC 1515:509 JLINK_WriteReg(R1, 0x00004000)  returns 0x00 (0000ms, 2765ms total)
T17FC 1515:509 JLINK_WriteReg(R2, 0x000000FF)  returns 0x00 (0000ms, 2765ms total)
T17FC 1515:509 JLINK_WriteReg(R3, 0x00000000)  returns 0x00 (0000ms, 2765ms total)
T17FC 1515:509 JLINK_WriteReg(R4, 0x00000000)  returns 0x00 (0000ms, 2765ms total)
T17FC 1515:509 JLINK_WriteReg(R5, 0x00000000)  returns 0x00 (0000ms, 2765ms total)
T17FC 1515:509 JLINK_WriteReg(R6, 0x00000000)  returns 0x00 (0000ms, 2765ms total)
T17FC 1515:509 JLINK_WriteReg(R7, 0x00000000)  returns 0x00 (0000ms, 2765ms total)
T17FC 1515:509 JLINK_WriteReg(R8, 0x00000000)  returns 0x00 (0000ms, 2765ms total)
T17FC 1515:509 JLINK_WriteReg(R9, 0x2000017C)  returns 0x00 (0000ms, 2765ms total)
T17FC 1515:509 JLINK_WriteReg(R10, 0x00000000)  returns 0x00 (0000ms, 2765ms total)
T17FC 1515:509 JLINK_WriteReg(R11, 0x00000000)  returns 0x00 (0000ms, 2765ms total)
T17FC 1515:509 JLINK_WriteReg(R12, 0x00000000)  returns 0x00 (0000ms, 2765ms total)
T17FC 1515:509 JLINK_WriteReg(R13, 0x20001000)  returns 0x00 (0000ms, 2765ms total)
T17FC 1515:509 JLINK_WriteReg(R14, 0x20000001)  returns 0x00 (0000ms, 2765ms total)
T17FC 1515:509 JLINK_WriteReg(R15, 0x20000020)  returns 0x00 (0000ms, 2765ms total)
T17FC 1515:509 JLINK_WriteReg(XPSR, 0x01000000)  returns 0x00 (0000ms, 2765ms total)
T17FC 1515:509 JLINK_WriteReg(MSP, 0x20001000)  returns 0x00 (0000ms, 2765ms total)
T17FC 1515:509 JLINK_WriteReg(PSP, 0x20001000)  returns 0x00 (0000ms, 2765ms total)
T17FC 1515:509 JLINK_WriteReg(CFBP, 0x00000000)  returns 0x00 (0000ms, 2765ms total)
T17FC 1515:509 JLINK_SetBPEx(Addr = 0x20000000, Type = 0xFFFFFFF2)  returns 0x00000002 (0000ms, 2765ms total)
T17FC 1515:509 JLINK_Go() >0x0D TIF> >0x28 TIF> >0x20E TIF> >0x13A TIF> >0x13A TIF> >0x13A TIF> >0x13A TIF> >0x1A2 TIF> >0x0D TIF> >0x28 TIF> (0006ms, 2771ms total)
T17FC 1515:515 JLINK_IsHalted() -- CPU is running >0x0D TIF> >0x28 TIF> >0x1A0 TIF> >0x0D TIF> >0x28 TIF> >0x11E4 TIF> >0x0D TIF> >0x28 TIF> >0x1A0 TIF> >0x0D TIF> >0x28 TIF>  returns TRUE (0009ms, 2780ms total)
T17FC 1515:524 JLINK_ReadReg(R15)  returns 0x20000000 (0000ms, 2771ms total)
T17FC 1515:524 JLINK_ClrBPEx(BPHandle = 0x00000002)  returns 0x00 (0000ms, 2771ms total)
T17FC 1515:524 JLINK_ReadReg(R0)  returns 0x00000001 (0000ms, 2771ms total)
T17FC 1515:524 JLINK_WriteReg(R0, 0x08000000)  returns 0x00 (0000ms, 2771ms total)
T17FC 1515:524 JLINK_WriteReg(R1, 0x00004000)  returns 0x00 (0000ms, 2771ms total)
T17FC 1515:524 JLINK_WriteReg(R2, 0x000000FF)  returns 0x00 (0000ms, 2771ms total)
T17FC 1515:524 JLINK_WriteReg(R3, 0x00000000)  returns 0x00 (0000ms, 2771ms total)
T17FC 1515:524 JLINK_WriteReg(R4, 0x00000000)  returns 0x00 (0000ms, 2771ms total)
T17FC 1515:524 JLINK_WriteReg(R5, 0x00000000)  returns 0x00 (0000ms, 2771ms total)
T17FC 1515:524 JLINK_WriteReg(R6, 0x00000000)  returns 0x00 (0000ms, 2771ms total)
T17FC 1515:524 JLINK_WriteReg(R7, 0x00000000)  returns 0x00 (0000ms, 2771ms total)
T17FC 1515:524 JLINK_WriteReg(R8, 0x00000000)  returns 0x00 (0000ms, 2771ms total)
T17FC 1515:524 JLINK_WriteReg(R9, 0x2000017C)  returns 0x00 (0000ms, 2771ms total)
T17FC 1515:524 JLINK_WriteReg(R10, 0x00000000)  returns 0x00 (0000ms, 2771ms total)
T17FC 1515:524 JLINK_WriteReg(R11, 0x00000000)  returns 0x00 (0001ms, 2772ms total)
T17FC 1515:525 JLINK_WriteReg(R12, 0x00000000)  returns 0x00 (0000ms, 2772ms total)
T17FC 1515:525 JLINK_WriteReg(R13, 0x20001000)  returns 0x00 (0000ms, 2772ms total)
T17FC 1515:525 JLINK_WriteReg(R14, 0x20000001)  returns 0x00 (0000ms, 2772ms total)
T17FC 1515:525 JLINK_WriteReg(R15, 0x200000BC)  returns 0x00 (0000ms, 2772ms total)
T17FC 1515:525 JLINK_WriteReg(XPSR, 0x01000000)  returns 0x00 (0000ms, 2772ms total)
T17FC 1515:525 JLINK_WriteReg(MSP, 0x20001000)  returns 0x00 (0000ms, 2772ms total)
T17FC 1515:525 JLINK_WriteReg(PSP, 0x20001000)  returns 0x00 (0000ms, 2772ms total)
T17FC 1515:525 JLINK_WriteReg(CFBP, 0x00000000)  returns 0x00 (0000ms, 2772ms total)
T17FC 1515:525 JLINK_SetBPEx(Addr = 0x20000000, Type = 0xFFFFFFF2)  returns 0x00000003 (0000ms, 2772ms total)
T17FC 1515:525 JLINK_Go() >0x0D TIF> >0x28 TIF> >0x20E TIF> >0x13A TIF> >0x13A TIF> >0x13A TIF> >0x1A2 TIF> >0x0D TIF> >0x28 TIF> (0004ms, 2776ms total)
T17FC 1515:529 JLINK_IsHalted() -- CPU is running >0x0D TIF> >0x28 TIF> >0x1A0 TIF> >0x0D TIF> >0x28 TIF>  returns FALSE (0002ms, 2778ms total)
T17FC 1515:577 JLINK_IsHalted() -- CPU is running >0x0D TIF> >0x28 TIF> >0x1A0 TIF> >0x0D TIF> >0x28 TIF>  returns FALSE (0001ms, 2777ms total)
T17FC 1515:581 JLINK_IsHalted() -- CPU is running >0x0D TIF> >0x28 TIF> >0x1A0 TIF> >0x0D TIF> >0x28 TIF>  returns FALSE (0002ms, 2778ms total)
T17FC 1515:588 JLINK_IsHalted() -- CPU is running >0x0D TIF> >0x28 TIF> >0x1A0 TIF> >0x0D TIF> >0x28 TIF>  returns FALSE (0002ms, 2778ms total)
T17FC 1515:592 JLINK_IsHalted() -- CPU is running >0x0D TIF> >0x28 TIF> >0x1A0 TIF> >0x0D TIF> >0x28 TIF>  returns FALSE (0002ms, 2778ms total)
T17FC 1515:596 JLINK_IsHalted() -- CPU is running >0x0D TIF> >0x28 TIF> >0x1A0 TIF> >0x0D TIF> >0x28 TIF>  returns FALSE (0002ms, 2778ms total)
T17FC 1515:600 JLINK_IsHalted() -- CPU is running >0x0D TIF> >0x28 TIF> >0x1A0 TIF> >0x0D TIF> >0x28 TIF>  returns FALSE (0002ms, 2778ms total)
T17FC 1515:605 JLINK_IsHalted() -- CPU is running >0x0D TIF> >0x28 TIF> >0x1A0 TIF> >0x0D TIF> >0x28 TIF>  returns FALSE (0001ms, 2777ms total)
T17FC 1515:608 JLINK_IsHalted() -- CPU is running >0x0D TIF> >0x28 TIF> >0x1A0 TIF> >0x0D TIF> >0x28 TIF>  returns FALSE (0001ms, 2777ms total)
T17FC 1515:611 JLINK_IsHalted() -- CPU is running >0x0D TIF> >0x28 TIF> >0x1A0 TIF> >0x0D TIF> >0x28 TIF>  returns FALSE (0001ms, 2777ms total)
T17FC 1515:614 JLINK_IsHalted() -- CPU is running >0x0D TIF> >0x28 TIF> >0x1A0 TIF> >0x0D TIF> >0x28 TIF>  returns FALSE (0001ms, 2777ms total)
T17FC 1515:617 JLINK_IsHalted() -- CPU is running >0x0D TIF> >0x28 TIF> >0x1A0 TIF> >0x0D TIF> >0x28 TIF>  returns FALSE (0002ms, 2778ms total)
T17FC 1515:621 JLINK_IsHalted() -- CPU is running >0x0D TIF> >0x28 TIF> >0x1A0 TIF> >0x0D TIF> >0x28 TIF>  returns FALSE (0002ms, 2778ms total)
T17FC 1515:626 JLINK_IsHalted() -- CPU is running >0x0D TIF> >0x28 TIF> >0x1A0 TIF> >0x0D TIF> >0x28 TIF>  returns FALSE (0002ms, 2778ms total)
T17FC 1515:629 JLINK_IsHalted() -- CPU is running >0x0D TIF> >0x28 TIF> >0x1A0 TIF> >0x0D TIF> >0x28 TIF>  returns FALSE (0002ms, 2778ms total)
T17FC 1515:633 JLINK_IsHalted() -- CPU is running >0x0D TIF> >0x28 TIF> >0x1A0 TIF> >0x0D TIF> >0x28 TIF>  returns FALSE (0001ms, 2777ms total)
T17FC 1515:638 JLINK_IsHalted() -- CPU is running >0x0D TIF> >0x28 TIF> >0x1A0 TIF> >0x0D TIF> >0x28 TIF>  returns FALSE (0001ms, 2777ms total)
T17FC 1515:642 JLINK_IsHalted() -- CPU is running >0x0D TIF> >0x28 TIF> >0x1A0 TIF> >0x0D TIF> >0x28 TIF>  returns FALSE (0001ms, 2777ms total)
T17FC 1515:645 JLINK_IsHalted() -- CPU is running >0x0D TIF> >0x28 TIF> >0x1A0 TIF> >0x0D TIF> >0x28 TIF>  returns FALSE (0001ms, 2777ms total)
T17FC 1515:648 JLINK_IsHalted() -- CPU is running >0x0D TIF> >0x28 TIF> >0x1A0 TIF> >0x0D TIF> >0x28 TIF>  returns FALSE (0001ms, 2777ms total)
T17FC 1515:651 JLINK_IsHalted() -- CPU is running >0x0D TIF> >0x28 TIF> >0x1A0 TIF> >0x0D TIF> >0x28 TIF>  returns FALSE (0002ms, 2778ms total)
T17FC 1515:656 JLINK_IsHalted() -- CPU is running >0x0D TIF> >0x28 TIF> >0x1A0 TIF> >0x0D TIF> >0x28 TIF>  returns FALSE (0002ms, 2778ms total)
T17FC 1515:660 JLINK_IsHalted() -- CPU is running >0x0D TIF> >0x28 TIF> >0x1A0 TIF> >0x0D TIF> >0x28 TIF>  returns FALSE (0001ms, 2777ms total)
T17FC 1515:664 JLINK_IsHalted() -- CPU is running >0x0D TIF> >0x28 TIF> >0x1A0 TIF> >0x0D TIF> >0x28 TIF>  returns FALSE (0001ms, 2777ms total)
T17FC 1515:669 JLINK_IsHalted() -- CPU is running >0x0D TIF> >0x28 TIF> >0x1A0 TIF> >0x0D TIF> >0x28 TIF>  returns FALSE (0002ms, 2778ms total)
T17FC 1515:672 JLINK_IsHalted() -- CPU is running >0x0D TIF> >0x28 TIF> >0x1A0 TIF> >0x0D TIF> >0x28 TIF>  returns FALSE (0002ms, 2778ms total)
T17FC 1515:676 JLINK_IsHalted() -- CPU is running >0x0D TIF> >0x28 TIF> >0x1A0 TIF> >0x0D TIF> >0x28 TIF>  returns FALSE (0001ms, 2777ms total)
T17FC 1515:681 JLINK_IsHalted() -- CPU is running >0x0D TIF> >0x28 TIF> >0x1A0 TIF> >0x0D TIF> >0x28 TIF>  returns FALSE (0001ms, 2777ms total)
T17FC 1515:684 JLINK_IsHalted() -- CPU is running >0x0D TIF> >0x28 TIF> >0x1A0 TIF> >0x0D TIF> >0x28 TIF>  returns FALSE (0001ms, 2777ms total)
T17FC 1515:687 JLINK_IsHalted() -- CPU is running >0x0D TIF> >0x28 TIF> >0x1A0 TIF> >0x0D TIF> >0x28 TIF>  returns FALSE (0001ms, 2777ms total)
T17FC 1515:690 JLINK_IsHalted() -- CPU is running >0x0D TIF> >0x28 TIF> >0x1A0 TIF> >0x0D TIF> >0x28 TIF>  returns FALSE (0001ms, 2777ms total)
T17FC 1515:693 JLINK_IsHalted() -- CPU is running >0x0D TIF> >0x28 TIF> >0x1A0 TIF> >0x0D TIF> >0x28 TIF>  returns FALSE (0001ms, 2777ms total)
T17FC 1515:696 JLINK_IsHalted() -- CPU is running >0x0D TIF> >0x28 TIF> >0x1A0 TIF> >0x0D TIF> >0x28 TIF>  returns FALSE (0001ms, 2777ms total)
T17FC 1515:701 JLINK_IsHalted() -- CPU is running >0x0D TIF> >0x28 TIF> >0x1A0 TIF> >0x0D TIF> >0x28 TIF>  returns FALSE (0002ms, 2778ms total)
T17FC 1515:705 JLINK_IsHalted() -- CPU is running >0x0D TIF> >0x28 TIF> >0x1A0 TIF> >0x0D TIF> >0x28 TIF>  returns FALSE (0002ms, 2778ms total)
T17FC 1515:709 JLINK_IsHalted() -- CPU is running >0x0D TIF> >0x28 TIF> >0x1A0 TIF> >0x0D TIF> >0x28 TIF>  returns FALSE (0002ms, 2778ms total)
T17FC 1515:713 JLINK_IsHalted() -- CPU is running >0x0D TIF> >0x28 TIF> >0x1A0 TIF> >0x0D TIF> >0x28 TIF>  returns FALSE (0001ms, 2777ms total)
T17FC 1515:716 JLINK_IsHalted() -- CPU is running >0x0D TIF> >0x28 TIF> >0x1A0 TIF> >0x0D TIF> >0x28 TIF>  returns FALSE (0002ms, 2778ms total)
T17FC 1515:722 JLINK_IsHalted() -- CPU is running >0x0D TIF> >0x28 TIF> >0x1A0 TIF> >0x0D TIF> >0x28 TIF>  returns FALSE (0001ms, 2777ms total)
T17FC 1515:725 JLINK_IsHalted() -- CPU is running >0x0D TIF> >0x28 TIF> >0x1A0 TIF> >0x0D TIF> >0x28 TIF>  returns FALSE (0000ms, 2776ms total)
T17FC 1515:727 JLINK_IsHalted() -- CPU is running >0x0D TIF> >0x28 TIF> >0x1A0 TIF> >0x0D TIF> >0x28 TIF>  returns FALSE (0001ms, 2777ms total)
T17FC 1515:731 JLINK_IsHalted() -- CPU is running >0x0D TIF> >0x28 TIF> >0x1A0 TIF> >0x0D TIF> >0x28 TIF>  returns FALSE (0002ms, 2778ms total)
T17FC 1515:735 JLINK_IsHalted() -- CPU is running >0x0D TIF> >0x28 TIF> >0x1A0 TIF> >0x0D TIF> >0x28 TIF>  returns FALSE (0001ms, 2777ms total)
T17FC 1515:738 JLINK_IsHalted() -- CPU is running >0x0D TIF> >0x28 TIF> >0x1A0 TIF> >0x0D TIF> >0x28 TIF>  returns FALSE (0001ms, 2777ms total)
T17FC 1515:741 JLINK_IsHalted() -- CPU is running >0x0D TIF> >0x28 TIF> >0x1A0 TIF> >0x0D TIF> >0x28 TIF>  returns FALSE (0001ms, 2777ms total)
T17FC 1515:744 JLINK_IsHalted() -- CPU is running >0x0D TIF> >0x28 TIF> >0x1A0 TIF> >0x0D TIF> >0x28 TIF>  returns FALSE (0001ms, 2777ms total)
T17FC 1515:748 JLINK_IsHalted() -- CPU is running >0x0D TIF> >0x28 TIF> >0x1A0 TIF> >0x0D TIF> >0x28 TIF>  returns FALSE (0001ms, 2777ms total)
T17FC 1515:751 JLINK_IsHalted() -- CPU is running >0x0D TIF> >0x28 TIF> >0x1A0 TIF> >0x0D TIF> >0x28 TIF>  returns FALSE (0001ms, 2777ms total)
T17FC 1515:755 JLINK_IsHalted() -- CPU is running >0x0D TIF> >0x28 TIF> >0x1A0 TIF> >0x0D TIF> >0x28 TIF>  returns FALSE (0001ms, 2777ms total)
T17FC 1515:758 JLINK_IsHalted() -- CPU is running >0x0D TIF> >0x28 TIF> >0x1A0 TIF> >0x0D TIF> >0x28 TIF>  returns FALSE (0001ms, 2777ms total)
T17FC 1515:764 JLINK_IsHalted() -- CPU is running >0x0D TIF> >0x28 TIF> >0x1A0 TIF> >0x0D TIF> >0x28 TIF>  returns FALSE (0002ms, 2778ms total)
T17FC 1515:768 JLINK_IsHalted() -- CPU is running >0x0D TIF> >0x28 TIF> >0x1A0 TIF> >0x0D TIF> >0x28 TIF>  returns FALSE (0002ms, 2778ms total)
T17FC 1515:772 JLINK_IsHalted() -- CPU is running >0x0D TIF> >0x28 TIF> >0x1A0 TIF> >0x0D TIF> >0x28 TIF>  returns FALSE (0001ms, 2777ms total)
T17FC 1515:775 JLINK_IsHalted() -- CPU is running >0x0D TIF> >0x28 TIF> >0x1A0 TIF> >0x0D TIF> >0x28 TIF>  returns FALSE (0002ms, 2778ms total)
T17FC 1515:780 JLINK_IsHalted() -- CPU is running >0x0D TIF> >0x28 TIF> >0x1A0 TIF> >0x0D TIF> >0x28 TIF>  returns FALSE (0002ms, 2778ms total)
T17FC 1515:783 JLINK_IsHalted() -- CPU is running >0x0D TIF> >0x28 TIF> >0x1A0 TIF> >0x0D TIF> >0x28 TIF>  returns FALSE (0002ms, 2778ms total)
T17FC 1515:787 JLINK_IsHalted() -- CPU is running >0x0D TIF> >0x28 TIF> >0x1A0 TIF> >0x0D TIF> >0x28 TIF>  returns FALSE (0002ms, 2778ms total)
T17FC 1515:792 JLINK_IsHalted() -- CPU is running >0x0D TIF> >0x28 TIF> >0x1A0 TIF> >0x0D TIF> >0x28 TIF>  returns FALSE (0002ms, 2778ms total)
T17FC 1515:796 JLINK_IsHalted() -- CPU is running >0x0D TIF> >0x28 TIF> >0x1A0 TIF> >0x0D TIF> >0x28 TIF>  returns FALSE (0002ms, 2778ms total)
T17FC 1515:800 JLINK_IsHalted() -- CPU is running >0x0D TIF> >0x28 TIF> >0x1A0 TIF> >0x0D TIF> >0x28 TIF>  returns FALSE (0001ms, 2777ms total)
T17FC 1515:804 JLINK_IsHalted() -- CPU is running >0x0D TIF> >0x28 TIF> >0x1A0 TIF> >0x0D TIF> >0x28 TIF>  returns FALSE (0001ms, 2777ms total)
T17FC 1515:807 JLINK_IsHalted() -- CPU is running >0x0D TIF> >0x28 TIF> >0x1A0 TIF> >0x0D TIF> >0x28 TIF>  returns FALSE (0001ms, 2777ms total)
T17FC 1515:812 JLINK_IsHalted() -- CPU is running >0x0D TIF> >0x28 TIF> >0x1A0 TIF> >0x0D TIF> >0x28 TIF>  returns FALSE (0002ms, 2778ms total)
T17FC 1515:815 JLINK_IsHalted() -- CPU is running >0x0D TIF> >0x28 TIF> >0x1A0 TIF> >0x0D TIF> >0x28 TIF>  returns FALSE (0002ms, 2778ms total)
T17FC 1515:818 JLINK_IsHalted() -- CPU is running >0x0D TIF> >0x28 TIF> >0x1A0 TIF> >0x0D TIF> >0x28 TIF>  returns FALSE (0002ms, 2778ms total)
T17FC 1515:823 JLINK_IsHalted() -- CPU is running >0x0D TIF> >0x28 TIF> >0x1A0 TIF> >0x0D TIF> >0x28 TIF>  returns FALSE (0002ms, 2778ms total)
T17FC 1515:826 JLINK_IsHalted() -- CPU is running >0x0D TIF> >0x28 TIF> >0x1A0 TIF> >0x0D TIF> >0x28 TIF>  returns FALSE (0002ms, 2778ms total)
T17FC 1515:830 JLINK_IsHalted() -- CPU is running >0x0D TIF> >0x28 TIF> >0x1A0 TIF> >0x0D TIF> >0x28 TIF>  returns FALSE (0002ms, 2778ms total)
T17FC 1515:834 JLINK_IsHalted() -- CPU is running >0x0D TIF> >0x28 TIF> >0x1A0 TIF> >0x0D TIF> >0x28 TIF>  returns FALSE (0001ms, 2777ms total)
T17FC 1515:837 JLINK_IsHalted() -- CPU is running >0x0D TIF> >0x28 TIF> >0x1A0 TIF> >0x0D TIF> >0x28 TIF>  returns FALSE (0002ms, 2778ms total)
T17FC 1515:842 JLINK_IsHalted() -- CPU is running >0x0D TIF> >0x28 TIF> >0x1A0 TIF> >0x0D TIF> >0x28 TIF>  returns FALSE (0002ms, 2778ms total)
T17FC 1515:846 JLINK_IsHalted() -- CPU is running >0x0D TIF> >0x28 TIF> >0x1A0 TIF> >0x0D TIF> >0x28 TIF>  returns FALSE (0002ms, 2779ms total)
T17FC 1515:851 JLINK_IsHalted() -- CPU is running >0x0D TIF> >0x28 TIF> >0x1A0 TIF> >0x0D TIF> >0x28 TIF>  returns FALSE (0002ms, 2779ms total)
T17FC 1515:856 JLINK_IsHalted() -- CPU is running >0x0D TIF> >0x28 TIF> >0x1A0 TIF> >0x0D TIF> >0x28 TIF>  returns FALSE (0002ms, 2779ms total)
T17FC 1515:860 JLINK_IsHalted() -- CPU is running >0x0D TIF> >0x28 TIF> >0x1A0 TIF> >0x0D TIF> >0x28 TIF>  returns FALSE (0002ms, 2779ms total)
T17FC 1515:864 JLINK_IsHalted() -- CPU is running >0x0D TIF> >0x28 TIF> >0x1A0 TIF> >0x0D TIF> >0x28 TIF>  returns FALSE (0002ms, 2779ms total)
T17FC 1515:870 JLINK_IsHalted() -- CPU is running >0x0D TIF> >0x28 TIF> >0x1A0 TIF> >0x0D TIF> >0x28 TIF>  returns FALSE (0001ms, 2778ms total)
T17FC 1515:874 JLINK_IsHalted() -- CPU is running >0x0D TIF> >0x28 TIF> >0x1A0 TIF> >0x0D TIF> >0x28 TIF>  returns FALSE (0002ms, 2779ms total)
T17FC 1515:877 JLINK_IsHalted() -- CPU is running >0x0D TIF> >0x28 TIF> >0x1A0 TIF> >0x0D TIF> >0x28 TIF>  returns FALSE (0002ms, 2779ms total)
T17FC 1515:881 JLINK_IsHalted() -- CPU is running >0x0D TIF> >0x28 TIF> >0x1A0 TIF> >0x0D TIF> >0x28 TIF>  returns FALSE (0002ms, 2779ms total)
T17FC 1515:886 JLINK_IsHalted() -- CPU is running >0x0D TIF> >0x28 TIF> >0x1A0 TIF> >0x0D TIF> >0x28 TIF>  returns FALSE (0002ms, 2779ms total)
T17FC 1515:891 JLINK_IsHalted() -- CPU is running >0x0D TIF> >0x28 TIF> >0x1A0 TIF> >0x0D TIF> >0x28 TIF>  returns FALSE (0002ms, 2779ms total)
T17FC 1515:894 JLINK_IsHalted() -- CPU is running >0x0D TIF> >0x28 TIF> >0x1A0 TIF> >0x0D TIF> >0x28 TIF>  returns FALSE (0002ms, 2779ms total)
T17FC 1515:900 JLINK_IsHalted() -- CPU is running >0x0D TIF> >0x28 TIF> >0x1A0 TIF> >0x0D TIF> >0x28 TIF> >0x11E4 TIF> >0x0D TIF> >0x28 TIF> >0x1A0 TIF> >0x0D TIF> >0x28 TIF>  returns TRUE (0010ms, 2787ms total)
T17FC 1515:910 JLINK_ReadReg(R15)  returns 0x20000000 (0000ms, 2777ms total)
T17FC 1515:910 JLINK_ClrBPEx(BPHandle = 0x00000003)  returns 0x00 (0000ms, 2777ms total)
T17FC 1515:910 JLINK_ReadReg(R0)  returns 0x00000000 (0000ms, 2777ms total)
T17FC 1515:910 JLINK_WriteReg(R0, 0x00000001)  returns 0x00 (0000ms, 2777ms total)
T17FC 1515:910 JLINK_WriteReg(R1, 0x00004000)  returns 0x00 (0000ms, 2777ms total)
T17FC 1515:910 JLINK_WriteReg(R2, 0x000000FF)  returns 0x00 (0000ms, 2777ms total)
T17FC 1515:910 JLINK_WriteReg(R3, 0x00000000)  returns 0x00 (0000ms, 2777ms total)
T17FC 1515:910 JLINK_WriteReg(R4, 0x00000000)  returns 0x00 (0000ms, 2777ms total)
T17FC 1515:910 JLINK_WriteReg(R5, 0x00000000)  returns 0x00 (0000ms, 2777ms total)
T17FC 1515:910 JLINK_WriteReg(R6, 0x00000000)  returns 0x00 (0000ms, 2777ms total)
T17FC 1515:910 JLINK_WriteReg(R7, 0x00000000)  returns 0x00 (0000ms, 2777ms total)
T17FC 1515:910 JLINK_WriteReg(R8, 0x00000000)  returns 0x00 (0000ms, 2777ms total)
T17FC 1515:910 JLINK_WriteReg(R9, 0x2000017C)  returns 0x00 (0000ms, 2777ms total)
T17FC 1515:910 JLINK_WriteReg(R10, 0x00000000)  returns 0x00 (0000ms, 2777ms total)
T17FC 1515:910 JLINK_WriteReg(R11, 0x00000000)  returns 0x00 (0000ms, 2777ms total)
T17FC 1515:910 JLINK_WriteReg(R12, 0x00000000)  returns 0x00 (0000ms, 2777ms total)
T17FC 1515:910 JLINK_WriteReg(R13, 0x20001000)  returns 0x00 (0000ms, 2777ms total)
T17FC 1515:910 JLINK_WriteReg(R14, 0x20000001)  returns 0x00 (0000ms, 2777ms total)
T17FC 1515:910 JLINK_WriteReg(R15, 0x20000082)  returns 0x00 (0000ms, 2777ms total)
T17FC 1515:910 JLINK_WriteReg(XPSR, 0x01000000)  returns 0x00 (0000ms, 2777ms total)
T17FC 1515:910 JLINK_WriteReg(MSP, 0x20001000)  returns 0x00 (0000ms, 2777ms total)
T17FC 1515:910 JLINK_WriteReg(PSP, 0x20001000)  returns 0x00 (0000ms, 2777ms total)
T17FC 1515:910 JLINK_WriteReg(CFBP, 0x00000000)  returns 0x00 (0000ms, 2777ms total)
T17FC 1515:910 JLINK_SetBPEx(Addr = 0x20000000, Type = 0xFFFFFFF2)  returns 0x00000004 (0000ms, 2777ms total)
T17FC 1515:910 JLINK_Go() >0x0D TIF> >0x28 TIF> >0x20E TIF> >0x13A TIF> >0x13A TIF> >0x13A TIF> >0x13A TIF> >0x13A TIF> >0x13A TIF> >0x1A2 TIF> >0x0D TIF> >0x28 TIF> (0007ms, 2784ms total)
T17FC 1515:917 JLINK_IsHalted() -- CPU is running >0x0D TIF> >0x28 TIF> >0x1A0 TIF> >0x0D TIF> >0x28 TIF> >0x11E4 TIF> >0x0D TIF> >0x28 TIF> >0x1A0 TIF> >0x0D TIF> >0x28 TIF>  returns TRUE (0010ms, 2794ms total)
T17FC 1515:927 JLINK_ReadReg(R15)  returns 0x20000000 (0000ms, 2784ms total)
T17FC 1515:927 JLINK_ClrBPEx(BPHandle = 0x00000004)  returns 0x00 (0000ms, 2784ms total)
T17FC 1515:927 JLINK_ReadReg(R0)  returns 0x00000000 (0000ms, 2784ms total)
T17FC 1515:980 JLINK_WriteMem(0x20000000, 0x0180 Bytes, ...) -- Data:  00 BE 0A E0 0D 78 2D 06 68 40 08 24 40 00 00 D3 ... >0x0D TIF> >0x28 TIF> >0x154D TIF> >0x0D TIF> >0x28 TIF>  returns 0x180 (0009ms, 2793ms total)
T17FC 1515:989 JLINK_WriteReg(R0, 0x08000000)  returns 0x00 (0000ms, 2793ms total)
T17FC 1515:989 JLINK_WriteReg(R1, 0x00B71B00)  returns 0x00 (0000ms, 2793ms total)
T17FC 1515:989 JLINK_WriteReg(R2, 0x00000002)  returns 0x00 (0000ms, 2793ms total)
T17FC 1515:990 JLINK_WriteReg(R3, 0x00000000)  returns 0x00 (0000ms, 2794ms total)
T17FC 1515:990 JLINK_WriteReg(R4, 0x00000000)  returns 0x00 (0000ms, 2794ms total)
T17FC 1515:990 JLINK_WriteReg(R5, 0x00000000)  returns 0x00 (0000ms, 2794ms total)
T17FC 1515:990 JLINK_WriteReg(R6, 0x00000000)  returns 0x00 (0000ms, 2794ms total)
T17FC 1515:990 JLINK_WriteReg(R7, 0x00000000)  returns 0x00 (0000ms, 2794ms total)
T17FC 1515:990 JLINK_WriteReg(R8, 0x00000000)  returns 0x00 (0000ms, 2794ms total)
T17FC 1515:990 JLINK_WriteReg(R9, 0x2000017C)  returns 0x00 (0000ms, 2794ms total)
T17FC 1515:990 JLINK_WriteReg(R10, 0x00000000)  returns 0x00 (0000ms, 2794ms total)
T17FC 1515:990 JLINK_WriteReg(R11, 0x00000000)  returns 0x00 (0000ms, 2794ms total)
T17FC 1515:990 JLINK_WriteReg(R12, 0x00000000)  returns 0x00 (0000ms, 2794ms total)
T17FC 1515:990 JLINK_WriteReg(R13, 0x20001000)  returns 0x00 (0000ms, 2794ms total)
T17FC 1515:990 JLINK_WriteReg(R14, 0x20000001)  returns 0x00 (0000ms, 2794ms total)
T17FC 1515:990 JLINK_WriteReg(R15, 0x20000054)  returns 0x00 (0000ms, 2794ms total)
T17FC 1515:990 JLINK_WriteReg(XPSR, 0x01000000)  returns 0x00 (0000ms, 2794ms total)
T17FC 1515:990 JLINK_WriteReg(MSP, 0x20001000)  returns 0x00 (0000ms, 2794ms total)
T17FC 1515:990 JLINK_WriteReg(PSP, 0x20001000)  returns 0x00 (0000ms, 2794ms total)
T17FC 1515:990 JLINK_WriteReg(CFBP, 0x00000000)  returns 0x00 (0000ms, 2794ms total)
T17FC 1515:990 JLINK_SetBPEx(Addr = 0x20000000, Type = 0xFFFFFFF2) >0x0D TIF> >0x28 TIF> >0x1A0 TIF> >0x0D TIF> >0x28 TIF> >0x0D TIF> >0x28 TIF> >0x1A2 TIF> >0x0D TIF> >0x28 TIF> >0x0D TIF> >0x28 TIF> >0x1A0 TIF> >0x0D TIF> >0x28 TIF> >0x0D TIF> >0x28 TIF> >0x1A2 TIF> >0x0D TIF> >0x28 TIF> >0x0D TIF> >0x28 TIF> >0x1A0 TIF> >0x0D TIF> >0x28 TIF>  returns 0x00000005 (0009ms, 2803ms total)
T17FC 1515:999 JLINK_Go() >0x0D TIF> >0x28 TIF> >0x1A2 TIF> >0x0D TIF> >0x28 TIF> >0x0D TIF> >0x28 TIF> >0x20E TIF> >0x13A TIF> >0x13A TIF> >0x13A TIF> >0x13A TIF> >0x1A2 TIF> >0x0D TIF> >0x28 TIF> (0006ms, 2809ms total)
T17FC 1516:005 JLINK_IsHalted() -- CPU is running >0x0D TIF> >0x28 TIF> >0x1A0 TIF> >0x0D TIF> >0x28 TIF> >0x11E4 TIF> >0x0D TIF> >0x28 TIF> >0x1A0 TIF> >0x0D TIF> >0x28 TIF>  returns TRUE (0011ms, 2820ms total)
T17FC 1516:016 JLINK_ReadReg(R15)  returns 0x20000000 (0000ms, 2809ms total)
T17FC 1516:016 JLINK_ClrBPEx(BPHandle = 0x00000005)  returns 0x00 (0000ms, 2809ms total)
T17FC 1516:016 JLINK_ReadReg(R0)  returns 0x00000000 (0000ms, 2809ms total)
T17FC 1516:016 JLINK_WriteMem(0x20000180, 0x0280 Bytes, ...) -- Data:  18 04 00 20 C1 01 00 08 31 05 00 08 29 05 00 08 ... >0x0D TIF> >0x28 TIF> >0x228D TIF> >0x0D TIF> >0x28 TIF>  returns 0x280 (0013ms, 2822ms total)
T17FC 1516:029 JLINK_WriteMem(0x20000400, 0x0180 Bytes, ...) -- Data:  00 04 2B 0D 43 EA 0C 33 5E 18 44 EB 1C 50 DA 46 ... >0x0D TIF> >0x28 TIF> >0x154D TIF> >0x0D TIF> >0x28 TIF>  returns 0x180 (0009ms, 2831ms total)
T17FC 1516:038 JLINK_WriteReg(R0, 0x08000000)  returns 0x00 (0000ms, 2831ms total)
T17FC 1516:038 JLINK_WriteReg(R1, 0x00000400)  returns 0x00 (0000ms, 2831ms total)
T17FC 1516:038 JLINK_WriteReg(R2, 0x20000180)  returns 0x00 (0000ms, 2831ms total)
T17FC 1516:038 JLINK_WriteReg(R3, 0x00000000)  returns 0x00 (0000ms, 2831ms total)
T17FC 1516:038 JLINK_WriteReg(R4, 0x00000000)  returns 0x00 (0000ms, 2831ms total)
T17FC 1516:038 JLINK_WriteReg(R5, 0x00000000)  returns 0x00 (0000ms, 2831ms total)
T17FC 1516:038 JLINK_WriteReg(R6, 0x00000000)  returns 0x00 (0000ms, 2831ms total)
T17FC 1516:038 JLINK_WriteReg(R7, 0x00000000)  returns 0x00 (0000ms, 2831ms total)
T17FC 1516:038 JLINK_WriteReg(R8, 0x00000000)  returns 0x00 (0000ms, 2831ms total)
T17FC 1516:038 JLINK_WriteReg(R9, 0x2000017C)  returns 0x00 (0000ms, 2831ms total)
T17FC 1516:038 JLINK_WriteReg(R10, 0x00000000)  returns 0x00 (0000ms, 2831ms total)
T17FC 1516:038 JLINK_WriteReg(R11, 0x00000000)  returns 0x00 (0000ms, 2831ms total)
T17FC 1516:038 JLINK_WriteReg(R12, 0x00000000)  returns 0x00 (0000ms, 2831ms total)
T17FC 1516:038 JLINK_WriteReg(R13, 0x20001000)  returns 0x00 (0000ms, 2831ms total)
T17FC 1516:038 JLINK_WriteReg(R14, 0x20000001)  returns 0x00 (0000ms, 2831ms total)
T17FC 1516:038 JLINK_WriteReg(R15, 0x20000108)  returns 0x00 (0000ms, 2831ms total)
T17FC 1516:038 JLINK_WriteReg(XPSR, 0x01000000)  returns 0x00 (0000ms, 2831ms total)
T17FC 1516:038 JLINK_WriteReg(MSP, 0x20001000)  returns 0x00 (0000ms, 2831ms total)
T17FC 1516:038 JLINK_WriteReg(PSP, 0x20001000)  returns 0x00 (0000ms, 2831ms total)
T17FC 1516:038 JLINK_WriteReg(CFBP, 0x00000000)  returns 0x00 (0000ms, 2831ms total)
T17FC 1516:038 JLINK_SetBPEx(Addr = 0x20000000, Type = 0xFFFFFFF2)  returns 0x00000006 (0000ms, 2831ms total)
T17FC 1516:038 JLINK_Go() >0x0D TIF> >0x28 TIF> >0x20E TIF> >0x13A TIF> >0x13A TIF> >0x13A TIF> >0x13A TIF> >0x1A2 TIF> >0x0D TIF> >0x28 TIF> (0006ms, 2837ms total)
T17FC 1516:044 JLINK_IsHalted() -- CPU is running >0x0D TIF> >0x28 TIF> >0x1A0 TIF> >0x0D TIF> >0x28 TIF>  returns FALSE (0001ms, 2838ms total)
T17FC 1516:050 JLINK_IsHalted() -- CPU is running >0x0D TIF> >0x28 TIF> >0x1A0 TIF> >0x0D TIF> >0x28 TIF> >0x11E4 TIF> >0x0D TIF> >0x28 TIF> >0x1A0 TIF> >0x0D TIF> >0x28 TIF>  returns TRUE (0010ms, 2847ms total)
T17FC 1516:060 JLINK_ReadReg(R15)  returns 0x20000000 (0000ms, 2837ms total)
T17FC 1516:060 JLINK_ClrBPEx(BPHandle = 0x00000006)  returns 0x00 (0000ms, 2837ms total)
T17FC 1516:060 JLINK_ReadReg(R0)  returns 0x00000000 (0000ms, 2837ms total)
T17FC 1516:060 JLINK_WriteMem(0x20000180, 0x0280 Bytes, ...) -- Data:  98 47 10 34 AC 42 F6 D3 FF F7 D4 FE 48 0D 00 08 ... >0x0D TIF> >0x28 TIF> >0x228D TIF> >0x0D TIF> >0x28 TIF>  returns 0x280 (0014ms, 2851ms total)
T17FC 1516:074 JLINK_WriteMem(0x20000400, 0x0180 Bytes, ...) -- Data:  12 4F 07 60 00 BF 00 BF 0F 4F 3F 68 07 F0 F0 01 ... >0x0D TIF> >0x28 TIF> >0x154D TIF> >0x0D TIF> >0x28 TIF>  returns 0x180 (0009ms, 2860ms total)
T17FC 1516:083 JLINK_WriteReg(R0, 0x08000400)  returns 0x00 (0000ms, 2860ms total)
T17FC 1516:083 JLINK_WriteReg(R1, 0x00000400)  returns 0x00 (0000ms, 2860ms total)
T17FC 1516:083 JLINK_WriteReg(R2, 0x20000180)  returns 0x00 (0000ms, 2860ms total)
T17FC 1516:083 JLINK_WriteReg(R3, 0x00000000)  returns 0x00 (0000ms, 2860ms total)
T17FC 1516:083 JLINK_WriteReg(R4, 0x00000000)  returns 0x00 (0000ms, 2860ms total)
T17FC 1516:083 JLINK_WriteReg(R5, 0x00000000)  returns 0x00 (0000ms, 2860ms total)
T17FC 1516:083 JLINK_WriteReg(R6, 0x00000000)  returns 0x00 (0000ms, 2860ms total)
T17FC 1516:083 JLINK_WriteReg(R7, 0x00000000)  returns 0x00 (0000ms, 2860ms total)
T17FC 1516:083 JLINK_WriteReg(R8, 0x00000000)  returns 0x00 (0000ms, 2860ms total)
T17FC 1516:083 JLINK_WriteReg(R9, 0x2000017C)  returns 0x00 (0000ms, 2860ms total)
T17FC 1516:083 JLINK_WriteReg(R10, 0x00000000)  returns 0x00 (0000ms, 2860ms total)
T17FC 1516:083 JLINK_WriteReg(R11, 0x00000000)  returns 0x00 (0000ms, 2860ms total)
T17FC 1516:083 JLINK_WriteReg(R12, 0x00000000)  returns 0x00 (0000ms, 2860ms total)
T17FC 1516:083 JLINK_WriteReg(R13, 0x20001000)  returns 0x00 (0000ms, 2860ms total)
T17FC 1516:083 JLINK_WriteReg(R14, 0x20000001)  returns 0x00 (0000ms, 2860ms total)
T17FC 1516:083 JLINK_WriteReg(R15, 0x20000108)  returns 0x00 (0000ms, 2860ms total)
T17FC 1516:083 JLINK_WriteReg(XPSR, 0x01000000)  returns 0x00 (0000ms, 2860ms total)
T17FC 1516:083 JLINK_WriteReg(MSP, 0x20001000)  returns 0x00 (0000ms, 2860ms total)
T17FC 1516:083 JLINK_WriteReg(PSP, 0x20001000)  returns 0x00 (0000ms, 2860ms total)
T17FC 1516:083 JLINK_WriteReg(CFBP, 0x00000000)  returns 0x00 (0000ms, 2860ms total)
T17FC 1516:083 JLINK_SetBPEx(Addr = 0x20000000, Type = 0xFFFFFFF2)  returns 0x00000007 (0000ms, 2860ms total)
T17FC 1516:083 JLINK_Go() >0x0D TIF> >0x28 TIF> >0x20E TIF> >0x13A TIF> >0x13A TIF> >0x13A TIF> >0x13A TIF> >0x13A TIF> >0x1A2 TIF> >0x0D TIF> >0x28 TIF> (0007ms, 2867ms total)
T17FC 1516:090 JLINK_IsHalted() -- CPU is running >0x0D TIF> >0x28 TIF> >0x1A0 TIF> >0x0D TIF> >0x28 TIF>  returns FALSE (0002ms, 2869ms total)
T17FC 1516:096 JLINK_IsHalted() -- CPU is running >0x0D TIF> >0x28 TIF> >0x1A0 TIF> >0x0D TIF> >0x28 TIF> >0x11E4 TIF> >0x0D TIF> >0x28 TIF> >0x1A0 TIF> >0x0D TIF> >0x28 TIF>  returns TRUE (0009ms, 2876ms total)
T17FC 1516:105 JLINK_ReadReg(R15)  returns 0x20000000 (0000ms, 2867ms total)
T17FC 1516:105 JLINK_ClrBPEx(BPHandle = 0x00000007)  returns 0x00 (0000ms, 2867ms total)
T17FC 1516:105 JLINK_ReadReg(R0)  returns 0x00000000 (0000ms, 2867ms total)
T17FC 1516:105 JLINK_WriteMem(0x20000180, 0x0280 Bytes, ...) -- Data:  4F F0 E0 21 09 69 41 F0 04 01 4F F0 E0 22 11 61 ... >0x0D TIF> >0x28 TIF> >0x228D TIF> >0x0D TIF> >0x28 TIF>  returns 0x280 (0013ms, 2880ms total)
T17FC 1516:118 JLINK_WriteMem(0x20000400, 0x0180 Bytes, ...) -- Data:  08 02 82 80 70 47 00 BF FE E7 02 E0 08 C8 12 1F ... >0x0D TIF> >0x28 TIF> >0x154D TIF> >0x0D TIF> >0x28 TIF>  returns 0x180 (0010ms, 2890ms total)
T17FC 1516:128 JLINK_WriteReg(R0, 0x08000800)  returns 0x00 (0000ms, 2890ms total)
T17FC 1516:128 JLINK_WriteReg(R1, 0x00000400)  returns 0x00 (0000ms, 2890ms total)
T17FC 1516:128 JLINK_WriteReg(R2, 0x20000180)  returns 0x00 (0000ms, 2890ms total)
T17FC 1516:128 JLINK_WriteReg(R3, 0x00000000)  returns 0x00 (0000ms, 2890ms total)
T17FC 1516:128 JLINK_WriteReg(R4, 0x00000000)  returns 0x00 (0000ms, 2890ms total)
T17FC 1516:128 JLINK_WriteReg(R5, 0x00000000)  returns 0x00 (0000ms, 2890ms total)
T17FC 1516:128 JLINK_WriteReg(R6, 0x00000000)  returns 0x00 (0000ms, 2890ms total)
T17FC 1516:128 JLINK_WriteReg(R7, 0x00000000)  returns 0x00 (0000ms, 2890ms total)
T17FC 1516:128 JLINK_WriteReg(R8, 0x00000000)  returns 0x00 (0000ms, 2890ms total)
T17FC 1516:128 JLINK_WriteReg(R9, 0x2000017C)  returns 0x00 (0000ms, 2890ms total)
T17FC 1516:128 JLINK_WriteReg(R10, 0x00000000)  returns 0x00 (0000ms, 2890ms total)
T17FC 1516:128 JLINK_WriteReg(R11, 0x00000000)  returns 0x00 (0000ms, 2890ms total)
T17FC 1516:128 JLINK_WriteReg(R12, 0x00000000)  returns 0x00 (0000ms, 2890ms total)
T17FC 1516:128 JLINK_WriteReg(R13, 0x20001000)  returns 0x00 (0000ms, 2890ms total)
T17FC 1516:128 JLINK_WriteReg(R14, 0x20000001)  returns 0x00 (0000ms, 2890ms total)
T17FC 1516:128 JLINK_WriteReg(R15, 0x20000108)  returns 0x00 (0000ms, 2890ms total)
T17FC 1516:128 JLINK_WriteReg(XPSR, 0x01000000)  returns 0x00 (0000ms, 2890ms total)
T17FC 1516:128 JLINK_WriteReg(MSP, 0x20001000)  returns 0x00 (0000ms, 2890ms total)
T17FC 1516:128 JLINK_WriteReg(PSP, 0x20001000)  returns 0x00 (0000ms, 2890ms total)
T17FC 1516:128 JLINK_WriteReg(CFBP, 0x00000000)  returns 0x00 (0000ms, 2890ms total)
T17FC 1516:128 JLINK_SetBPEx(Addr = 0x20000000, Type = 0xFFFFFFF2)  returns 0x00000008 (0000ms, 2890ms total)
T17FC 1516:128 JLINK_Go() >0x0D TIF> >0x28 TIF> >0x20E TIF> >0x13A TIF> >0x13A TIF> >0x13A TIF> >0x13A TIF> >0x13A TIF> >0x1A2 TIF> >0x0D TIF> >0x28 TIF> (0006ms, 2896ms total)
T17FC 1516:134 JLINK_IsHalted() -- CPU is running >0x0D TIF> >0x28 TIF> >0x1A0 TIF> >0x0D TIF> >0x28 TIF>  returns FALSE (0002ms, 2898ms total)
T17FC 1516:140 JLINK_IsHalted() -- CPU is running >0x0D TIF> >0x28 TIF> >0x1A0 TIF> >0x0D TIF> >0x28 TIF> >0x11E4 TIF> >0x0D TIF> >0x28 TIF> >0x1A0 TIF> >0x0D TIF> >0x28 TIF>  returns TRUE (0010ms, 2906ms total)
T17FC 1516:150 JLINK_ReadReg(R15)  returns 0x20000000 (0000ms, 2896ms total)
T17FC 1516:150 JLINK_ClrBPEx(BPHandle = 0x00000008)  returns 0x00 (0000ms, 2896ms total)
T17FC 1516:150 JLINK_ReadReg(R0)  returns 0x00000000 (0000ms, 2896ms total)
T17FC 1516:151 JLINK_WriteMem(0x20000180, 0x0280 Bytes, ...) -- Data:  04 21 12 48 FF F7 8C FC 04 21 10 48 FF F7 8A FC ... >0x0D TIF> >0x28 TIF> >0x228D TIF> >0x0D TIF> >0x28 TIF>  returns 0x280 (0013ms, 2909ms total)
T17FC 1516:164 JLINK_WriteMem(0x20000400, 0x0180 Bytes, ...) -- Data:  FF FF FF FF FF FF FF FF FF FF FF FF FF FF FF FF ... >0x0D TIF> >0x28 TIF> >0x154D TIF> >0x0D TIF> >0x28 TIF>  returns 0x180 (0008ms, 2917ms total)
T17FC 1516:172 JLINK_WriteReg(R0, 0x08000C00)  returns 0x00 (0000ms, 2917ms total)
T17FC 1516:172 JLINK_WriteReg(R1, 0x0000017C)  returns 0x00 (0000ms, 2917ms total)
T17FC 1516:172 JLINK_WriteReg(R2, 0x20000180)  returns 0x00 (0000ms, 2917ms total)
T17FC 1516:172 JLINK_WriteReg(R3, 0x00000000)  returns 0x00 (0000ms, 2917ms total)
T17FC 1516:172 JLINK_WriteReg(R4, 0x00000000)  returns 0x00 (0000ms, 2917ms total)
T17FC 1516:172 JLINK_WriteReg(R5, 0x00000000)  returns 0x00 (0000ms, 2917ms total)
T17FC 1516:172 JLINK_WriteReg(R6, 0x00000000)  returns 0x00 (0000ms, 2917ms total)
T17FC 1516:172 JLINK_WriteReg(R7, 0x00000000)  returns 0x00 (0000ms, 2917ms total)
T17FC 1516:172 JLINK_WriteReg(R8, 0x00000000)  returns 0x00 (0000ms, 2917ms total)
T17FC 1516:172 JLINK_WriteReg(R9, 0x2000017C)  returns 0x00 (0000ms, 2917ms total)
T17FC 1516:172 JLINK_WriteReg(R10, 0x00000000)  returns 0x00 (0000ms, 2917ms total)
T17FC 1516:172 JLINK_WriteReg(R11, 0x00000000)  returns 0x00 (0000ms, 2917ms total)
T17FC 1516:172 JLINK_WriteReg(R12, 0x00000000)  returns 0x00 (0000ms, 2917ms total)
T17FC 1516:172 JLINK_WriteReg(R13, 0x20001000)  returns 0x00 (0000ms, 2917ms total)
T17FC 1516:172 JLINK_WriteReg(R14, 0x20000001)  returns 0x00 (0000ms, 2917ms total)
T17FC 1516:172 JLINK_WriteReg(R15, 0x20000108)  returns 0x00 (0000ms, 2917ms total)
T17FC 1516:172 JLINK_WriteReg(XPSR, 0x01000000)  returns 0x00 (0000ms, 2917ms total)
T17FC 1516:172 JLINK_WriteReg(MSP, 0x20001000)  returns 0x00 (0000ms, 2917ms total)
T17FC 1516:172 JLINK_WriteReg(PSP, 0x20001000)  returns 0x00 (0000ms, 2917ms total)
T17FC 1516:172 JLINK_WriteReg(CFBP, 0x00000000)  returns 0x00 (0000ms, 2917ms total)
T17FC 1516:172 JLINK_SetBPEx(Addr = 0x20000000, Type = 0xFFFFFFF2)  returns 0x00000009 (0000ms, 2917ms total)
T17FC 1516:172 JLINK_Go() >0x0D TIF> >0x28 TIF> >0x20E TIF> >0x13A TIF> >0x13A TIF> >0x13A TIF> >0x13A TIF> >0x13A TIF> >0x1A2 TIF> >0x0D TIF> >0x28 TIF> (0006ms, 2923ms total)
T17FC 1516:178 JLINK_IsHalted() -- CPU is running >0x0D TIF> >0x28 TIF> >0x1A0 TIF> >0x0D TIF> >0x28 TIF>  returns FALSE (0002ms, 2925ms total)
T17FC 1516:183 JLINK_IsHalted() -- CPU is running >0x0D TIF> >0x28 TIF> >0x1A0 TIF> >0x0D TIF> >0x28 TIF> >0x11E4 TIF> >0x0D TIF> >0x28 TIF> >0x1A0 TIF> >0x0D TIF> >0x28 TIF>  returns TRUE (0010ms, 2933ms total)
T17FC 1516:193 JLINK_ReadReg(R15)  returns 0x20000000 (0000ms, 2923ms total)
T17FC 1516:193 JLINK_ClrBPEx(BPHandle = 0x00000009)  returns 0x00 (0000ms, 2923ms total)
T17FC 1516:193 JLINK_ReadReg(R0)  returns 0x00000000 (0000ms, 2923ms total)
T17FC 1516:193 JLINK_WriteReg(R0, 0x00000002)  returns 0x00 (0000ms, 2923ms total)
T17FC 1516:193 JLINK_WriteReg(R1, 0x0000017C)  returns 0x00 (0000ms, 2923ms total)
T17FC 1516:193 JLINK_WriteReg(R2, 0x20000180)  returns 0x00 (0000ms, 2923ms total)
T17FC 1516:193 JLINK_WriteReg(R3, 0x00000000)  returns 0x00 (0000ms, 2923ms total)
T17FC 1516:193 JLINK_WriteReg(R4, 0x00000000)  returns 0x00 (0000ms, 2923ms total)
T17FC 1516:193 JLINK_WriteReg(R5, 0x00000000)  returns 0x00 (0000ms, 2923ms total)
T17FC 1516:193 JLINK_WriteReg(R6, 0x00000000)  returns 0x00 (0000ms, 2923ms total)
T17FC 1516:193 JLINK_WriteReg(R7, 0x00000000)  returns 0x00 (0000ms, 2923ms total)
T17FC 1516:193 JLINK_WriteReg(R8, 0x00000000)  returns 0x00 (0000ms, 2923ms total)
T17FC 1516:193 JLINK_WriteReg(R9, 0x2000017C)  returns 0x00 (0000ms, 2923ms total)
T17FC 1516:193 JLINK_WriteReg(R10, 0x00000000)  returns 0x00 (0000ms, 2923ms total)
T17FC 1516:193 JLINK_WriteReg(R11, 0x00000000)  returns 0x00 (0000ms, 2923ms total)
T17FC 1516:193 JLINK_WriteReg(R12, 0x00000000)  returns 0x00 (0000ms, 2923ms total)
T17FC 1516:193 JLINK_WriteReg(R13, 0x20001000)  returns 0x00 (0000ms, 2923ms total)
T17FC 1516:193 JLINK_WriteReg(R14, 0x20000001)  returns 0x00 (0000ms, 2923ms total)
T17FC 1516:193 JLINK_WriteReg(R15, 0x20000082)  returns 0x00 (0000ms, 2923ms total)
T17FC 1516:193 JLINK_WriteReg(XPSR, 0x01000000)  returns 0x00 (0000ms, 2923ms total)
T17FC 1516:193 JLINK_WriteReg(MSP, 0x20001000)  returns 0x00 (0000ms, 2923ms total)
T17FC 1516:193 JLINK_WriteReg(PSP, 0x20001000)  returns 0x00 (0000ms, 2923ms total)
T17FC 1516:193 JLINK_WriteReg(CFBP, 0x00000000)  returns 0x00 (0000ms, 2923ms total)
T17FC 1516:193 JLINK_SetBPEx(Addr = 0x20000000, Type = 0xFFFFFFF2)  returns 0x0000000A (0001ms, 2924ms total)
T17FC 1516:194 JLINK_Go() >0x0D TIF> >0x28 TIF> >0x20E TIF> >0x13A TIF> >0x13A TIF> >0x13A TIF> >0x13A TIF> >0x13A TIF> >0x1A2 TIF> >0x0D TIF> >0x28 TIF> (0005ms, 2929ms total)
T17FC 1516:199 JLINK_IsHalted() -- CPU is running >0x0D TIF> >0x28 TIF> >0x1A0 TIF> >0x0D TIF> >0x28 TIF> >0x11E4 TIF> >0x0D TIF> >0x28 TIF> >0x1A0 TIF> >0x0D TIF> >0x28 TIF>  returns TRUE (0011ms, 2940ms total)
T17FC 1516:210 JLINK_ReadReg(R15)  returns 0x20000000 (0000ms, 2929ms total)
T17FC 1516:210 JLINK_ClrBPEx(BPHandle = 0x0000000A)  returns 0x00 (0000ms, 2929ms total)
T17FC 1516:210 JLINK_ReadReg(R0)  returns 0x00000000 (0000ms, 2929ms total)
T17FC 1516:263 JLINK_WriteMem(0x20000000, 0x0180 Bytes, ...) -- Data:  00 BE 0A E0 0D 78 2D 06 68 40 08 24 40 00 00 D3 ... >0x0D TIF> >0x28 TIF> >0x154D TIF> >0x0D TIF> >0x28 TIF>  returns 0x180 (0009ms, 2938ms total)
T17FC 1516:272 JLINK_WriteReg(R0, 0x08000000)  returns 0x00 (0000ms, 2938ms total)
T17FC 1516:272 JLINK_WriteReg(R1, 0x00B71B00)  returns 0x00 (0000ms, 2938ms total)
T17FC 1516:272 JLINK_WriteReg(R2, 0x00000003)  returns 0x00 (0000ms, 2938ms total)
T17FC 1516:272 JLINK_WriteReg(R3, 0x00000000)  returns 0x00 (0000ms, 2938ms total)
T17FC 1516:272 JLINK_WriteReg(R4, 0x00000000)  returns 0x00 (0000ms, 2938ms total)
T17FC 1516:272 JLINK_WriteReg(R5, 0x00000000)  returns 0x00 (0000ms, 2938ms total)
T17FC 1516:272 JLINK_WriteReg(R6, 0x00000000)  returns 0x00 (0000ms, 2938ms total)
T17FC 1516:272 JLINK_WriteReg(R7, 0x00000000)  returns 0x00 (0000ms, 2938ms total)
T17FC 1516:272 JLINK_WriteReg(R8, 0x00000000)  returns 0x00 (0000ms, 2938ms total)
T17FC 1516:272 JLINK_WriteReg(R9, 0x2000017C)  returns 0x00 (0000ms, 2938ms total)
T17FC 1516:272 JLINK_WriteReg(R10, 0x00000000)  returns 0x00 (0000ms, 2938ms total)
T17FC 1516:272 JLINK_WriteReg(R11, 0x00000000)  returns 0x00 (0000ms, 2938ms total)
T17FC 1516:272 JLINK_WriteReg(R12, 0x00000000)  returns 0x00 (0000ms, 2938ms total)
T17FC 1516:272 JLINK_WriteReg(R13, 0x20001000)  returns 0x00 (0000ms, 2938ms total)
T17FC 1516:272 JLINK_WriteReg(R14, 0x20000001)  returns 0x00 (0000ms, 2938ms total)
T17FC 1516:272 JLINK_WriteReg(R15, 0x20000054)  returns 0x00 (0000ms, 2938ms total)
T17FC 1516:272 JLINK_WriteReg(XPSR, 0x01000000)  returns 0x00 (0000ms, 2938ms total)
T17FC 1516:272 JLINK_WriteReg(MSP, 0x20001000)  returns 0x00 (0000ms, 2938ms total)
T17FC 1516:272 JLINK_WriteReg(PSP, 0x20001000)  returns 0x00 (0000ms, 2938ms total)
T17FC 1516:272 JLINK_WriteReg(CFBP, 0x00000000)  returns 0x00 (0000ms, 2938ms total)
